Title: *positive edge trigger flip flop 
Date: Thu Nov 24 15:07:25  2011
Plotname: Transient Analysis
Flags: real
No. Variables: 3
No. Points: 230     
Variables:
	0	time	time
	1	v(q)	voltage
	2	v(clk)	voltage
Values:
0		0.000000000000000e+00
	1.099998420830870e+00
	0.000000000000000e+00
1		5.000000000000001e-12
	1.099998558856851e+00
	5.000000000000000e-03
2		1.000000000000000e-11
	1.099998635490242e+00
	1.000000000000000e-02
3		2.000000000000000e-11
	1.099998722401670e+00
	2.000000000000000e-02
4		4.000000000000000e-11
	1.099998769206956e+00
	4.000000000000000e-02
5		8.000000000000001e-11
	1.099998847434970e+00
	8.000000000000000e-02
6		1.600000000000000e-10
	1.099999529453803e+00
	1.600000000000000e-01
7		3.200000000000000e-10
	1.100033699934003e+00
	3.200000000000000e-01
8		6.400000000000001e-10
	9.280623053584850e-01
	6.400000000000000e-01
9		1.000000000000000e-09
	5.294991962523621e-01
	1.000000000000000e+00
10		1.037981955282640e-09
	4.883938598775787e-01
	1.000000000000000e+00
11		1.113945865847920e-09
	4.086535029576289e-01
	1.000000000000000e+00
12		1.265873686978481e-09
	2.702219812233247e-01
	1.000000000000000e+00
13		1.527652534670872e-09
	1.130039029230833e-01
	1.000000000000000e+00
14		1.812843091715171e-09
	3.663263822504657e-02
	1.000000000000000e+00
15		2.086265688301560e-09
	1.141893160038101e-02
	1.000000000000000e+00
16		2.379002190416742e-09
	3.104787362643157e-03
	1.000000000000000e+00
17		2.727113763992912e-09
	5.820442712008673e-04
	1.000000000000000e+00
18		3.253227985093886e-09
	-4.953123661966962e-06
	1.000000000000000e+00
19		4.099806693575216e-09
	7.427073009374119e-06
	1.000000000000000e+00
20		5.099806693575216e-09
	5.021423801947888e-06
	1.000000000000000e+00
21		6.000000000000000e-09
	4.950231927877583e-06
	1.000000000000000e+00
22		6.100000000000000e-09
	5.784157835788539e-06
	9.000000000000001e-01
23		6.300000000000000e-09
	5.619397434982862e-06
	7.000000000000001e-01
24		6.700000000000000e-09
	3.780981505862749e-06
	2.999999999999998e-01
25		7.000000000000000e-09
	4.548364955807162e-06
	4.135689186945957e-16
26		7.080000000000000e-09
	5.780784520440274e-06
	0.000000000000000e+00
27		7.240000000000000e-09
	6.516758495793880e-06
	0.000000000000000e+00
28		7.560000000000000e-09
	5.698151713668755e-06
	0.000000000000000e+00
29		8.199999999999999e-09
	5.236435358833728e-06
	0.000000000000000e+00
30		9.200000000000000e-09
	5.332709433143207e-06
	0.000000000000000e+00
31		1.000000000000000e-08
	5.295207148405856e-06
	0.000000000000000e+00
32		1.010000000000000e-08
	6.536614263770791e-06
	9.999999999999923e-02
33		1.030000000000000e-08
	6.807681969973509e-06
	2.999999999999994e-01
34		1.070000000000000e-08
	3.847782948591331e-06
	6.999999999999996e-01
35		1.100000000000000e-08
	4.508115821415177e-06
	1.000000000000000e+00
36		1.108000000000000e-08
	5.000376389388080e-06
	1.000000000000000e+00
37		1.124000000000000e-08
	5.255635946097887e-06
	1.000000000000000e+00
38		1.156000000000000e-08
	5.304820264831464e-06
	1.000000000000000e+00
39		1.220000000000000e-08
	5.307932673820078e-06
	1.000000000000000e+00
40		1.320000000000000e-08
	5.302121794753942e-06
	1.000000000000000e+00
41		1.420000000000000e-08
	5.310127889042459e-06
	1.000000000000000e+00
42		1.520000000000000e-08
	5.301001725374911e-06
	1.000000000000000e+00
43		1.600000000000000e-08
	5.311725660093095e-06
	9.999999999999993e-01
44		1.610000000000000e-08
	5.617278458773234e-06
	8.999999999999985e-01
45		1.630000000000000e-08
	5.523351031084907e-06
	7.000000000000001e-01
46		1.670000000000000e-08
	3.797727392029841e-06
	2.999999999999998e-01
47		1.700000000000000e-08
	4.522959236945876e-06
	4.135689186945957e-16
48		1.708000000000000e-08
	5.770799887697546e-06
	0.000000000000000e+00
49		1.724000000000000e-08
	6.514490680751783e-06
	0.000000000000000e+00
50		1.756000000000000e-08
	5.697714979767639e-06
	0.000000000000000e+00
51		1.820000000000000e-08
	5.236598381995816e-06
	0.000000000000000e+00
52		1.920000000000000e-08
	5.332527066717776e-06
	0.000000000000000e+00
53		2.000000000000000e-08
	5.295396813538088e-06
	0.000000000000000e+00
54		2.010000000000000e-08
	6.536608357761970e-06
	1.000000000000009e-01
55		2.030000000000000e-08
	6.808167829908074e-06
	2.999999999999994e-01
56		2.070000000000000e-08
	3.881402961958187e-06
	6.999999999999996e-01
57		2.100000000000000e-08
	4.474583516131432e-06
	9.999999999999990e-01
58		2.108000000000000e-08
	4.975008015111821e-06
	1.000000000000000e+00
59		2.124000000000000e-08
	5.246040901399713e-06
	1.000000000000000e+00
60		2.156000000000000e-08
	5.303399684411650e-06
	1.000000000000000e+00
61		2.220000000000000e-08
	5.307720300247087e-06
	1.000000000000000e+00
62		2.320000000000000e-08
	5.302409769211341e-06
	1.000000000000000e+00
63		2.420000000000000e-08
	5.309843530543844e-06
	1.000000000000000e+00
64		2.520000000000000e-08
	5.300863685125139e-06
	1.000000000000000e+00
65		2.600000000000000e-08
	5.311195770298654e-06
	9.999999999999993e-01
66		2.610000000000000e-08
	5.617059181829100e-06
	8.999999999999985e-01
67		2.630000000000000e-08
	5.523144806924398e-06
	7.000000000000001e-01
68		2.670000000000000e-08
	3.797800727608517e-06
	2.999999999999998e-01
69		2.700000000000000e-08
	4.522996191542586e-06
	4.135689186945957e-16
70		2.708000000000000e-08
	5.770816712154452e-06
	0.000000000000000e+00
71		2.724000000000000e-08
	6.514493155080201e-06
	0.000000000000000e+00
72		2.756000000000000e-08
	5.697714962537497e-06
	0.000000000000000e+00
73		2.820000000000000e-08
	5.236598406141983e-06
	0.000000000000000e+00
74		2.920000000000000e-08
	5.332527122635841e-06
	0.000000000000000e+00
75		3.000000000000000e-08
	5.295396716508835e-06
	0.000000000000000e+00
76		3.010000000000000e-08
	6.536608398781547e-06
	1.000000000000009e-01
77		3.030000000000001e-08
	6.808165829831269e-06
	3.000000000000027e-01
78		3.070000000000000e-08
	3.881298232708438e-06
	6.999999999999996e-01
79		3.100000000000001e-08
	4.474688922804357e-06
	1.000000000000000e+00
80		3.108000000000000e-08
	4.975087072849552e-06
	1.000000000000000e+00
81		3.124000000000001e-08
	5.246070718153018e-06
	1.000000000000000e+00
82		3.156000000000001e-08
	5.303404204239885e-06
	1.000000000000000e+00
83		3.220000000000000e-08
	5.307720896584279e-06
	1.000000000000000e+00
84		3.320000000000001e-08
	5.302408935935046e-06
	1.000000000000000e+00
85		3.420000000000001e-08
	5.309844353712150e-06
	1.000000000000000e+00
86		3.520000000000001e-08
	5.300862905789854e-06
	1.000000000000000e+00
87		3.600000000000000e-08
	5.311196495873477e-06
	9.999999999999993e-01
88		3.610000000000001e-08
	5.617059248815508e-06
	8.999999999999985e-01
89		3.630000000000001e-08
	5.523145037828571e-06
	6.999999999999967e-01
90		3.670000000000000e-08
	3.797800571622166e-06
	2.999999999999998e-01
91		3.700000000000001e-08
	4.522996109710256e-06
	0.000000000000000e+00
92		3.708000000000001e-08
	5.770816675036740e-06
	0.000000000000000e+00
93		3.724000000000001e-08
	6.514493148367298e-06
	0.000000000000000e+00
94		3.756000000000001e-08
	5.697714962573043e-06
	0.000000000000000e+00
95		3.820000000000000e-08
	5.236598406280926e-06
	0.000000000000000e+00
96		3.920000000000001e-08
	5.332527122468237e-06
	0.000000000000000e+00
97		4.000000000000000e-08
	5.295396717575232e-06
	0.000000000000000e+00
98		4.010000000000000e-08
	6.536608399436436e-06
	1.000000000000009e-01
99		4.030000000000000e-08
	6.808165834126406e-06
	3.000000000000027e-01
100		4.070000000000000e-08
	3.881298465495154e-06
	6.999999999999996e-01
101		4.100000000000000e-08
	4.474688687528933e-06
	1.000000000000000e+00
102		4.108000000000000e-08
	4.975086896278083e-06
	1.000000000000000e+00
103		4.124000000000000e-08
	5.246070651634521e-06
	1.000000000000000e+00
104		4.156000000000000e-08
	5.303404194720428e-06
	1.000000000000000e+00
105		4.220000000000000e-08
	5.307720895521917e-06
	1.000000000000000e+00
106		4.320000000000000e-08
	5.302408937286826e-06
	1.000000000000000e+00
107		4.420000000000001e-08
	5.309844352151085e-06
	1.000000000000000e+00
108		4.520000000000001e-08
	5.300862907393325e-06
	1.000000000000000e+00
109		4.600000000000000e-08
	5.311196494660400e-06
	9.999999999999993e-01
110		4.610000000000000e-08
	5.617059247680981e-06
	8.999999999999985e-01
111		4.630000000000000e-08
	5.523145036957434e-06
	6.999999999999967e-01
112		4.670000000000000e-08
	3.797800572283071e-06
	2.999999999999998e-01
113		4.700000000000000e-08
	4.522996110192608e-06
	0.000000000000000e+00
114		4.708000000000000e-08
	5.770816674674550e-06
	0.000000000000000e+00
115		4.724000000000000e-08
	6.514493149018905e-06
	0.000000000000000e+00
116		4.756000000000000e-08
	5.697714962601267e-06
	0.000000000000000e+00
117		4.820000000000000e-08
	5.236598405633393e-06
	0.000000000000000e+00
118		4.920000000000000e-08
	5.332527123801501e-06
	0.000000000000000e+00
119		5.000000000000000e-08
	5.295396716379847e-06
	0.000000000000000e+00
120		5.010000000000000e-08
	6.536608399143453e-06
	1.000000000000009e-01
121		5.030000000000000e-08
	6.808165833518113e-06
	3.000000000000027e-01
122		5.070000000000000e-08
	3.881298464582402e-06
	6.999999999999996e-01
123		5.100000000000000e-08
	4.474688688194433e-06
	1.000000000000000e+00
124		5.108000000000000e-08
	4.975086896348341e-06
	1.000000000000000e+00
125		5.124000000000000e-08
	5.246070651618154e-06
	1.000000000000000e+00
126		5.156000000000000e-08
	5.303404194807110e-06
	1.000000000000000e+00
127		5.220000000000000e-08
	5.307720894845234e-06
	1.000000000000000e+00
128		5.320000000000000e-08
	5.302408937990989e-06
	1.000000000000000e+00
129		5.420000000000000e-08
	5.309844352268059e-06
	1.000000000000000e+00
130		5.520000000000000e-08
	5.300862907438440e-06
	1.000000000000000e+00
131		5.600000000000000e-08
	5.311196493665916e-06
	9.999999999999993e-01
132		5.610000000000000e-08
	5.617059247715967e-06
	8.999999999999985e-01
133		5.630000000000000e-08
	5.523145037354789e-06
	6.999999999999967e-01
134		5.670000000000000e-08
	3.797800571448421e-06
	2.999999999999998e-01
135		5.700000000000000e-08
	4.522996110302219e-06
	0.000000000000000e+00
136		5.708000000000000e-08
	5.770816675327252e-06
	0.000000000000000e+00
137		5.724000000000000e-08
	6.514493149384753e-06
	0.000000000000000e+00
138		5.756000000000000e-08
	5.697714962134712e-06
	0.000000000000000e+00
139		5.820000000000000e-08
	5.236598405916034e-06
	0.000000000000000e+00
140		5.920000000000000e-08
	5.332527124017520e-06
	0.000000000000000e+00
141		5.999999999999999e-08
	5.295396716197651e-06
	0.000000000000000e+00
142		6.009999999999999e-08
	6.536608397484333e-06
	9.999999999998103e-02
143		6.029999999999999e-08
	6.808165833641231e-06
	2.999999999999828e-01
144		6.069999999999999e-08
	3.881298465203791e-06
	6.999999999999864e-01
145		6.100000000000000e-08
	4.474688688577760e-06
	9.999999999999957e-01
146		6.108000000000000e-08
	4.975086896395681e-06
	1.000000000000000e+00
147		6.124000000000000e-08
	5.246070652279349e-06
	1.000000000000000e+00
148		6.156000000000000e-08
	5.303404194520196e-06
	1.000000000000000e+00
149		6.220000000000000e-08
	5.307720894751875e-06
	1.000000000000000e+00
150		6.320000000000000e-08
	5.302408937709710e-06
	1.000000000000000e+00
151		6.419999999999999e-08
	5.309844352214771e-06
	1.000000000000000e+00
152		6.519999999999999e-08
	5.300862907828191e-06
	1.000000000000000e+00
153		6.600000000000001e-08
	5.311196493244566e-06
	9.999999999999993e-01
154		6.610000000000000e-08
	5.617059248681493e-06
	9.000000000000051e-01
155		6.630000000000000e-08
	5.523145037533766e-06
	7.000000000000033e-01
156		6.670000000000001e-08
	3.797800571245660e-06
	2.999999999999998e-01
157		6.700000000000000e-08
	4.522996109398161e-06
	3.722337108685858e-15
158		6.708000000000000e-08
	5.770816675876463e-06
	0.000000000000000e+00
159		6.724000000000000e-08
	6.514493150123779e-06
	0.000000000000000e+00
160		6.755999999999999e-08
	5.697714961855525e-06
	0.000000000000000e+00
161		6.819999999999999e-08
	5.236598406578799e-06
	0.000000000000000e+00
162		6.919999999999998e-08
	5.332527123386001e-06
	0.000000000000000e+00
163		7.000000000000000e-08
	5.295396715306198e-06
	0.000000000000000e+00
164		7.010000000000000e-08
	6.536608397370785e-06
	9.999999999999427e-02
165		7.030000000000000e-08
	6.808165833404166e-06
	2.999999999999960e-01
166		7.070000000000000e-08
	3.881298466968955e-06
	6.999999999999996e-01
167		7.100000000000000e-08
	4.474688687645828e-06
	9.999999999999957e-01
168		7.108000000000000e-08
	4.975086896259627e-06
	1.000000000000000e+00
169		7.123999999999999e-08
	5.246070652050860e-06
	1.000000000000000e+00
170		7.155999999999999e-08
	5.303404194312052e-06
	1.000000000000000e+00
171		7.219999999999998e-08
	5.307720895412809e-06
	1.000000000000000e+00
172		7.319999999999998e-08
	5.302408937670945e-06
	1.000000000000000e+00
173		7.419999999999998e-08
	5.309844352089140e-06
	1.000000000000000e+00
174		7.519999999999997e-08
	5.300862907122058e-06
	1.000000000000000e+00
175		7.600000000000001e-08
	5.311196493988246e-06
	9.999999999999993e-01
176		7.610000000000000e-08
	5.617059248570998e-06
	9.000000000000051e-01
177		7.630000000000000e-08
	5.523145036912459e-06
	7.000000000000033e-01
178		7.670000000000001e-08
	3.797800572879777e-06
	2.999999999999998e-01
179		7.700000000000000e-08
	4.522996110134122e-06
	3.722337108685858e-15
180		7.708000000000000e-08
	5.770816674173314e-06
	0.000000000000000e+00
181		7.724000000000000e-08
	6.514493148807766e-06
	0.000000000000000e+00
182		7.755999999999999e-08
	5.697714962495818e-06
	0.000000000000000e+00
183		7.819999999999999e-08
	5.236598405696651e-06
	0.000000000000000e+00
184		7.919999999999998e-08
	5.332527123866152e-06
	0.000000000000000e+00
185		8.000000000000000e-08
	5.295396716189109e-06
	0.000000000000000e+00
186		8.010000000000000e-08
	6.536608398157720e-06
	9.999999999999427e-02
187		8.030000000000000e-08
	6.808165834521311e-06
	2.999999999999960e-01
188		8.070000000000000e-08
	3.881298464744470e-06
	6.999999999999996e-01
189		8.100000000000000e-08
	4.474688687764100e-06
	9.999999999999957e-01
190		8.108000000000000e-08
	4.975086896078187e-06
	1.000000000000000e+00
191		8.123999999999999e-08
	5.246070651917865e-06
	1.000000000000000e+00
192		8.155999999999998e-08
	5.303404195013813e-06
	1.000000000000000e+00
193		8.219999999999998e-08
	5.307720895361241e-06
	1.000000000000000e+00
194		8.319999999999998e-08
	5.302408937057613e-06
	1.000000000000000e+00
195		8.419999999999997e-08
	5.309844352730846e-06
	1.000000000000000e+00
196		8.519999999999997e-08
	5.300862907060841e-06
	1.000000000000000e+00
197		8.600000000000000e-08
	5.311196493972385e-06
	9.999999999999993e-01
198		8.610000000000000e-08
	5.617059248863171e-06
	9.000000000000051e-01
199		8.630000000000000e-08
	5.523145035954067e-06
	7.000000000000033e-01
200		8.670000000000000e-08
	3.797800572616823e-06
	2.999999999999998e-01
201		8.700000000000000e-08
	4.522996110707817e-06
	3.722337108685858e-15
202		8.708000000000000e-08
	5.770816674895555e-06
	0.000000000000000e+00
203		8.723999999999999e-08
	6.514493148755980e-06
	0.000000000000000e+00
204		8.755999999999998e-08
	5.697714963205466e-06
	0.000000000000000e+00
205		8.819999999999998e-08
	5.236598406094428e-06
	0.000000000000000e+00
206		8.919999999999998e-08
	5.332527122757898e-06
	0.000000000000000e+00
207		9.000000000000000e-08
	5.295396716590111e-06
	0.000000000000000e+00
208		9.009999999999999e-08
	6.536608399209879e-06
	9.999999999999427e-02
209		9.029999999999999e-08
	6.808165834926113e-06
	2.999999999999960e-01
210		9.070000000000000e-08
	3.881298464836480e-06
	6.999999999999996e-01
211		9.099999999999999e-08
	4.474688687531073e-06
	9.999999999999957e-01
212		9.107999999999999e-08
	4.975086896486526e-06
	1.000000000000000e+00
213		9.123999999999999e-08
	5.246070652129832e-06
	1.000000000000000e+00
214		9.155999999999998e-08
	5.303404194009143e-06
	1.000000000000000e+00
215		9.219999999999998e-08
	5.307720895412642e-06
	1.000000000000000e+00
216		9.319999999999997e-08
	5.302408937355337e-06
	1.000000000000000e+00
217		9.419999999999997e-08
	5.309844352561054e-06
	1.000000000000000e+00
218		9.519999999999997e-08
	5.300862907057392e-06
	1.000000000000000e+00
219		9.600000000000000e-08
	5.311196494001901e-06
	9.999999999999993e-01
220		9.609999999999999e-08
	5.617059248598300e-06
	9.000000000000051e-01
221		9.630000000000000e-08
	5.523145036849570e-06
	7.000000000000033e-01
222		9.670000000000000e-08
	3.797800572991727e-06
	2.999999999999998e-01
223		9.700000000000000e-08
	4.522996109197210e-06
	3.722337108685858e-15
224		9.707999999999999e-08
	5.770816675524827e-06
	0.000000000000000e+00
225		9.723999999999999e-08
	6.514493149770201e-06
	0.000000000000000e+00
226		9.755999999999998e-08
	5.697714961607514e-06
	0.000000000000000e+00
227		9.819999999999998e-08
	5.236598405661580e-06
	0.000000000000000e+00
228		9.919999999999998e-08
	5.332527123538967e-06
	0.000000000000000e+00
229		1.000000000000000e-07
	5.295396716416646e-06
	0.000000000000000e+00
