Title: *inverter
Date: Mon Aug 23 14:43:54  2010
Plotname: Transient Analysis
Flags: real
No. Variables: 4
No. Points: 291     
Variables:
	0	time	time
	1	v(a)	voltage
	2	v(b)	voltage
	3	v(out)	voltage
Values:
0		0.000000000000000e+00
	0.000000000000000e+00
	0.000000000000000e+00
	1.099995922776056e+00
1		5.000000000000001e-12
	5.500000000000001e-03
	5.500000000000001e-03
	1.100035537966651e+00
2		1.000000000000000e-11
	1.100000000000000e-02
	1.100000000000000e-02
	1.100075463430696e+00
3		2.000000000000000e-11
	2.200000000000000e-02
	2.200000000000000e-02
	1.100153577985832e+00
4		4.000000000000000e-11
	4.400000000000000e-02
	4.400000000000000e-02
	1.100298738406785e+00
5		8.000000000000001e-11
	8.800000000000001e-02
	8.800000000000001e-02
	1.100550449245301e+00
6		1.600000000000000e-10
	1.760000000000000e-01
	1.760000000000000e-01
	1.100920668186240e+00
7		3.200000000000000e-10
	3.520000000000000e-01
	3.520000000000000e-01
	1.098849200727737e+00
8		6.400000000000001e-10
	7.040000000000001e-01
	7.040000000000001e-01
	9.385356435093675e-01
9		1.000000000000000e-09
	1.100000000000000e+00
	1.100000000000000e+00
	3.987277164771600e-01
10		1.041376586984613e-09
	1.100000000000000e+00
	1.100000000000000e+00
	3.232813767446827e-01
11		1.124129760953838e-09
	1.100000000000000e+00
	1.100000000000000e+00
	1.949989282768490e-01
12		1.289636108892288e-09
	1.100000000000000e+00
	1.100000000000000e+00
	5.501009013983933e-02
13		1.409779150967963e-09
	1.100000000000000e+00
	1.100000000000000e+00
	2.048837791745791e-02
14		1.541284991789763e-09
	1.100000000000000e+00
	1.100000000000000e+00
	6.575793669523259e-03
15		1.688248042534355e-09
	1.100000000000000e+00
	1.100000000000000e+00
	1.746612436067814e-03
16		1.910920033331999e-09
	1.100000000000000e+00
	1.100000000000000e+00
	1.123452438739552e-04
17		2.223998984715799e-09
	1.100000000000000e+00
	1.100000000000000e+00
	-7.424867612755670e-06
18		2.795630511486367e-09
	1.100000000000000e+00
	1.100000000000000e+00
	8.652259856969824e-06
19		3.795630511486367e-09
	1.100000000000000e+00
	1.100000000000000e+00
	1.021872028843200e-06
20		4.795630511486367e-09
	1.100000000000000e+00
	1.100000000000000e+00
	5.086287982827771e-06
21		5.795630511486366e-09
	1.100000000000000e+00
	1.100000000000000e+00
	2.260534574162125e-06
22		6.000000000000000e-09
	1.100000000000000e+00
	1.100000000000000e+00
	3.087032645219656e-06
23		6.100000000000000e-09
	9.900000000000002e-01
	1.100000000000000e+00
	-4.333557022393945e-05
24		6.300000000000000e-09
	7.700000000000001e-01
	1.100000000000000e+00
	-9.807314837685954e-05
25		6.700000000000000e-09
	3.299999999999998e-01
	1.100000000000000e+00
	-1.211664988714650e-04
26		7.000000000000000e-09
	4.549312315749177e-16
	1.100000000000000e+00
	-1.125926784594151e-04
27		7.080000000000000e-09
	0.000000000000000e+00
	1.100000000000000e+00
	-8.491805303453456e-05
28		7.240000000000000e-09
	0.000000000000000e+00
	1.100000000000000e+00
	-4.293150357387881e-05
29		7.560000000000000e-09
	0.000000000000000e+00
	1.100000000000000e+00
	-7.947410225736771e-06
30		8.199999999999999e-09
	0.000000000000000e+00
	1.100000000000000e+00
	3.238465342966575e-06
31		9.200000000000000e-09
	0.000000000000000e+00
	1.100000000000000e+00
	1.639464433402085e-06
32		1.000000000000000e-08
	0.000000000000000e+00
	1.100000000000000e+00
	2.129317757263663e-06
33		1.010000000000000e-08
	1.099999999999992e-01
	1.100000000000000e+00
	3.224429446303588e-05
34		1.030000000000000e-08
	3.299999999999993e-01
	1.100000000000000e+00
	8.072171027856637e-05
35		1.070000000000000e-08
	7.699999999999997e-01
	1.100000000000000e+00
	1.168103150980943e-04
36		1.100000000000000e-08
	1.100000000000000e+00
	1.099999999999999e+00
	1.111701592416142e-04
37		1.108000000000000e-08
	1.100000000000000e+00
	1.012000000000000e+00
	-2.104842777385294e-05
38		1.124000000000000e-08
	1.100000000000000e+00
	8.360000000000003e-01
	-6.191368648376830e-05
39		1.156000000000000e-08
	1.100000000000000e+00
	4.839999999999997e-01
	4.677314796764619e-04
40		1.200000000000000e-08
	1.100000000000000e+00
	4.549312315749177e-16
	7.516767700898941e-04
41		1.206400000000000e-08
	1.100000000000000e+00
	0.000000000000000e+00
	7.191534169916498e-04
42		1.219200000000000e-08
	1.100000000000000e+00
	0.000000000000000e+00
	5.984905479713547e-04
43		1.244800000000000e-08
	1.100000000000000e+00
	0.000000000000000e+00
	3.190805991998165e-04
44		1.296000000000000e-08
	1.100000000000000e+00
	0.000000000000000e+00
	8.364483902638603e-05
45		1.396000000000000e-08
	1.100000000000000e+00
	0.000000000000000e+00
	2.711468722585122e-05
46		1.496000000000000e-08
	1.100000000000000e+00
	0.000000000000000e+00
	2.129973209993555e-05
47		1.596000000000000e-08
	1.100000000000000e+00
	0.000000000000000e+00
	1.441574241321688e-05
48		1.600000000000000e-08
	1.099999999999999e+00
	0.000000000000000e+00
	1.433124487170165e-05
49		1.608000000000001e-08
	1.011999999999994e+00
	0.000000000000000e+00
	-3.686121128294844e-05
50		1.624000000000002e-08
	8.359999999999840e-01
	0.000000000000000e+00
	-1.179021280789520e-04
51		1.645247933872029e-08
	6.022727274076768e-01
	0.000000000000000e+00
	8.571144663488397e-03
52		1.670284539898260e-08
	3.268700611191455e-01
	0.000000000000000e+00
	1.560237558999322e-01
53		1.693399585597358e-08
	7.260455842906444e-02
	0.000000000000000e+00
	4.679122194362584e-01
54		1.700000000000000e-08
	4.549312315749177e-16
	0.000000000000000e+00
	5.739050417755386e-01
55		1.704623009139820e-08
	0.000000000000000e+00
	0.000000000000000e+00
	6.441656505509337e-01
56		1.713869027419459e-08
	0.000000000000000e+00
	0.000000000000000e+00
	7.726117932001435e-01
57		1.732361063978738e-08
	0.000000000000000e+00
	0.000000000000000e+00
	9.512522951732791e-01
58		1.769345137097295e-08
	0.000000000000000e+00
	0.000000000000000e+00
	1.087378069533907e+00
59		1.819025620878920e-08
	0.000000000000000e+00
	0.000000000000000e+00
	1.101369733367092e+00
60		1.872465762688973e-08
	0.000000000000000e+00
	0.000000000000000e+00
	1.099790290499112e+00
61		1.954317483954298e-08
	0.000000000000000e+00
	0.000000000000000e+00
	1.100067456619551e+00
62		2.000000000000000e-08
	0.000000000000000e+00
	0.000000000000000e+00
	1.099990976665168e+00
63		2.010000000000000e-08
	1.100000000000010e-01
	1.100000000000010e-01
	1.100556601828927e+00
64		2.030000000000000e-08
	3.299999999999993e-01
	3.299999999999993e-01
	1.099425251595226e+00
65		2.070000000000000e-08
	7.699999999999997e-01
	7.699999999999997e-01
	8.581678393430574e-01
66		2.100000000000000e-08
	1.099999999999999e+00
	1.099999999999999e+00
	3.815931073485512e-01
67		2.104107105027094e-08
	1.100000000000000e+00
	1.100000000000000e+00
	3.087491097180660e-01
68		2.112321315081281e-08
	1.100000000000000e+00
	1.100000000000000e+00
	1.855046168940912e-01
69		2.128749735189656e-08
	1.100000000000000e+00
	1.100000000000000e+00
	5.226255119789294e-02
70		2.140523511366028e-08
	1.100000000000000e+00
	1.100000000000000e+00
	1.987420193139297e-02
71		2.153785889417271e-08
	1.100000000000000e+00
	1.100000000000000e+00
	6.304149290375075e-03
72		2.168516316805714e-08
	1.100000000000000e+00
	1.100000000000000e+00
	1.672481966185648e-03
73		2.191299255178028e-08
	1.100000000000000e+00
	1.100000000000000e+00
	9.502612543761988e-05
74		2.222869123340718e-08
	1.100000000000000e+00
	1.100000000000000e+00
	1.708109178291380e-06
75		2.281668560141951e-08
	1.100000000000000e+00
	1.100000000000000e+00
	1.340920589415583e-05
76		2.381668560141950e-08
	1.100000000000000e+00
	1.100000000000000e+00
	4.389130008186792e-06
77		2.481668560141950e-08
	1.100000000000000e+00
	1.100000000000000e+00
	7.683993486502801e-06
78		2.581668560141950e-08
	1.100000000000000e+00
	1.100000000000000e+00
	4.276120174701052e-06
79		2.600000000000000e-08
	1.099999999999999e+00
	1.100000000000000e+00
	4.986194937216078e-06
80		2.610000000000000e-08
	9.899999999999984e-01
	1.100000000000000e+00
	-4.189534819891606e-05
81		2.630000000000000e-08
	7.700000000000001e-01
	1.100000000000000e+00
	-9.744499167742545e-05
82		2.670000000000000e-08
	3.299999999999998e-01
	1.100000000000000e+00
	-1.212065240599163e-04
83		2.700000000000000e-08
	4.549312315749177e-16
	1.100000000000000e+00
	-1.126029195551316e-04
84		2.708000000000000e-08
	0.000000000000000e+00
	1.100000000000000e+00
	-8.492584299875468e-05
85		2.724000000000000e-08
	0.000000000000000e+00
	1.100000000000000e+00
	-4.293553657919640e-05
86		2.756000000000000e-08
	0.000000000000000e+00
	1.100000000000000e+00
	-7.948311549882727e-06
87		2.820000000000000e-08
	0.000000000000000e+00
	1.100000000000000e+00
	3.238573187490916e-06
88		2.920000000000000e-08
	0.000000000000000e+00
	1.100000000000000e+00
	1.639428515020591e-06
89		3.000000000000000e-08
	0.000000000000000e+00
	1.100000000000000e+00
	2.129325634580620e-06
90		3.010000000000000e-08
	1.100000000000010e-01
	1.100000000000000e+00
	3.224430032410562e-05
91		3.030000000000001e-08
	3.300000000000030e-01
	1.100000000000000e+00
	8.072171292612858e-05
92		3.070000000000000e-08
	7.699999999999997e-01
	1.100000000000000e+00
	1.168103219396802e-04
93		3.100000000000000e-08
	1.099999999999995e+00
	1.100000000000000e+00
	1.111701603531967e-04
94		3.108000000000000e-08
	1.100000000000000e+00
	1.012000000000003e+00
	-2.104844112253712e-05
95		3.123999999999999e-08
	1.100000000000000e+00
	8.360000000000076e-01
	-6.191377949417788e-05
96		3.155999999999999e-08
	1.100000000000000e+00
	4.840000000000088e-01
	4.677313903548893e-04
97		3.200000000000000e-08
	1.100000000000000e+00
	0.000000000000000e+00
	7.516767913473899e-04
98		3.206400000000000e-08
	1.100000000000000e+00
	0.000000000000000e+00
	7.191534293492883e-04
99		3.219200000000000e-08
	1.100000000000000e+00
	0.000000000000000e+00
	5.984905500594373e-04
100		3.244800000000000e-08
	1.100000000000000e+00
	0.000000000000000e+00
	3.190805985538092e-04
101		3.296000000000000e-08
	1.100000000000000e+00
	0.000000000000000e+00
	8.364483866625149e-05
102		3.396000000000000e-08
	1.100000000000000e+00
	0.000000000000000e+00
	2.711468725005888e-05
103		3.496000000000000e-08
	1.100000000000000e+00
	0.000000000000000e+00
	2.129973206695934e-05
104		3.596000000000001e-08
	1.100000000000000e+00
	0.000000000000000e+00
	1.441574241183906e-05
105		3.600000000000000e-08
	1.099999999999999e+00
	0.000000000000000e+00
	1.433124486955306e-05
106		3.608000000000000e-08
	1.012000000000002e+00
	0.000000000000000e+00
	-3.686121128557385e-05
107		3.624000000000000e-08
	8.360000000000057e-01
	0.000000000000000e+00
	-1.179021280820017e-04
108		3.645247933872026e-08
	6.022727274077168e-01
	0.000000000000000e+00
	8.571144663412859e-03
109		3.670284539898270e-08
	3.268700611190327e-01
	0.000000000000000e+00
	1.560237558999960e-01
110		3.693399585597363e-08
	7.260455842900984e-02
	0.000000000000000e+00
	4.679122194363345e-01
111		3.700000000000001e-08
	0.000000000000000e+00
	0.000000000000000e+00
	5.739050417755397e-01
112		3.704623009139819e-08
	0.000000000000000e+00
	0.000000000000000e+00
	6.441656505509198e-01
113		3.713869027419456e-08
	0.000000000000000e+00
	0.000000000000000e+00
	7.726117932001059e-01
114		3.732361063978731e-08
	0.000000000000000e+00
	0.000000000000000e+00
	9.512522951732283e-01
115		3.769345137097280e-08
	0.000000000000000e+00
	0.000000000000000e+00
	1.087378069533884e+00
116		3.819025620878895e-08
	0.000000000000000e+00
	0.000000000000000e+00
	1.101369733367092e+00
117		3.872465762688946e-08
	0.000000000000000e+00
	0.000000000000000e+00
	1.099790290499112e+00
118		3.954317483954250e-08
	0.000000000000000e+00
	0.000000000000000e+00
	1.100067456619551e+00
119		4.000000000000000e-08
	0.000000000000000e+00
	0.000000000000000e+00
	1.099990976665168e+00
120		4.010000000000000e-08
	1.100000000000010e-01
	1.100000000000010e-01
	1.100556601828927e+00
121		4.030000000000000e-08
	3.300000000000030e-01
	3.300000000000030e-01
	1.099425251595225e+00
122		4.070000000000000e-08
	7.699999999999997e-01
	7.699999999999997e-01
	8.581678393430554e-01
123		4.100000000000000e-08
	1.100000000000000e+00
	1.100000000000000e+00
	3.815931073485458e-01
124		4.104107105027094e-08
	1.100000000000000e+00
	1.100000000000000e+00
	3.087491097180611e-01
125		4.112321315081282e-08
	1.100000000000000e+00
	1.100000000000000e+00
	1.855046168940876e-01
126		4.128749735189656e-08
	1.100000000000000e+00
	1.100000000000000e+00
	5.226255119789150e-02
127		4.140523511366028e-08
	1.100000000000000e+00
	1.100000000000000e+00
	1.987420193139259e-02
128		4.153785889417272e-08
	1.100000000000000e+00
	1.100000000000000e+00
	6.304149290374935e-03
129		4.168516316805715e-08
	1.100000000000000e+00
	1.100000000000000e+00
	1.672481966185611e-03
130		4.191299255178029e-08
	1.100000000000000e+00
	1.100000000000000e+00
	9.502612543760748e-05
131		4.222869123340719e-08
	1.100000000000000e+00
	1.100000000000000e+00
	1.708109178291429e-06
132		4.281668560141953e-08
	1.100000000000000e+00
	1.100000000000000e+00
	1.340920589415368e-05
133		4.381668560141953e-08
	1.100000000000000e+00
	1.100000000000000e+00
	4.389130008189199e-06
134		4.481668560141953e-08
	1.100000000000000e+00
	1.100000000000000e+00
	7.683993486502159e-06
135		4.581668560141953e-08
	1.100000000000000e+00
	1.100000000000000e+00
	4.276120174701973e-06
136		4.600000000000000e-08
	1.099999999999999e+00
	1.100000000000000e+00
	4.986194937216373e-06
137		4.610000000000000e-08
	9.899999999999984e-01
	1.100000000000000e+00
	-4.189534819891595e-05
138		4.630000000000000e-08
	7.699999999999965e-01
	1.100000000000000e+00
	-9.744499167742685e-05
139		4.670000000000000e-08
	3.299999999999998e-01
	1.100000000000000e+00
	-1.212065240599140e-04
140		4.700000000000000e-08
	0.000000000000000e+00
	1.100000000000000e+00
	-1.126029195551300e-04
141		4.708000000000000e-08
	0.000000000000000e+00
	1.100000000000000e+00
	-8.492584299875274e-05
142		4.724000000000000e-08
	0.000000000000000e+00
	1.100000000000000e+00
	-4.293553657919555e-05
143		4.756000000000000e-08
	0.000000000000000e+00
	1.100000000000000e+00
	-7.948311549884106e-06
144		4.820000000000000e-08
	0.000000000000000e+00
	1.100000000000000e+00
	3.238573187490589e-06
145		4.920000000000000e-08
	0.000000000000000e+00
	1.100000000000000e+00
	1.639428515020932e-06
146		5.000000000000000e-08
	0.000000000000000e+00
	1.100000000000000e+00
	2.129325634580862e-06
147		5.010000000000000e-08
	1.100000000000010e-01
	1.100000000000000e+00
	3.224430032410589e-05
148		5.030000000000000e-08
	3.300000000000030e-01
	1.100000000000000e+00
	8.072171292612845e-05
149		5.070000000000000e-08
	7.699999999999997e-01
	1.100000000000000e+00
	1.168103219396794e-04
150		5.100000000000000e-08
	1.100000000000000e+00
	1.100000000000000e+00
	1.111701603531883e-04
151		5.108000000000000e-08
	1.100000000000000e+00
	1.012000000000003e+00
	-2.104844112254388e-05
152		5.124000000000000e-08
	1.100000000000000e+00
	8.360000000000003e-01
	-6.191377949417858e-05
153		5.156000000000000e-08
	1.100000000000000e+00
	4.840000000000015e-01
	4.677313903549008e-04
154		5.200000000000000e-08
	1.100000000000000e+00
	0.000000000000000e+00
	7.516767913473820e-04
155		5.206400000000000e-08
	1.100000000000000e+00
	0.000000000000000e+00
	7.191534293492826e-04
156		5.219200000000000e-08
	1.100000000000000e+00
	0.000000000000000e+00
	5.984905500594321e-04
157		5.244800000000000e-08
	1.100000000000000e+00
	0.000000000000000e+00
	3.190805985538050e-04
158		5.296000000000000e-08
	1.100000000000000e+00
	0.000000000000000e+00
	8.364483866624920e-05
159		5.396000000000000e-08
	1.100000000000000e+00
	0.000000000000000e+00
	2.711468725005935e-05
160		5.496000000000000e-08
	1.100000000000000e+00
	0.000000000000000e+00
	2.129973206695859e-05
161		5.596000000000001e-08
	1.100000000000000e+00
	0.000000000000000e+00
	1.441574241183922e-05
162		5.600000000000000e-08
	1.099999999999999e+00
	0.000000000000000e+00
	1.433124486955351e-05
163		5.607999999999998e-08
	1.012000000000016e+00
	0.000000000000000e+00
	-3.686121128556734e-05
164		5.623999999999995e-08
	8.360000000000495e-01
	0.000000000000000e+00
	-1.179021280819879e-04
165		5.645247933872018e-08
	6.022727274077969e-01
	0.000000000000000e+00
	8.571144663398615e-03
166		5.670284539898262e-08
	3.268700611191128e-01
	0.000000000000000e+00
	1.560237558999250e-01
167		5.693399585597352e-08
	7.260455842912630e-02
	0.000000000000000e+00
	4.679122194361737e-01
168		5.700000000000000e-08
	0.000000000000000e+00
	0.000000000000000e+00
	5.739050417755467e-01
169		5.704623009139818e-08
	0.000000000000000e+00
	0.000000000000000e+00
	6.441656505509167e-01
170		5.713869027419454e-08
	0.000000000000000e+00
	0.000000000000000e+00
	7.726117932000863e-01
171		5.732361063978725e-08
	0.000000000000000e+00
	0.000000000000000e+00
	9.512522951731982e-01
172		5.769345137097268e-08
	0.000000000000000e+00
	0.000000000000000e+00
	1.087378069533869e+00
173		5.819025620878878e-08
	0.000000000000000e+00
	0.000000000000000e+00
	1.101369733367093e+00
174		5.872465762688928e-08
	0.000000000000000e+00
	0.000000000000000e+00
	1.099790290499112e+00
175		5.954317483954220e-08
	0.000000000000000e+00
	0.000000000000000e+00
	1.100067456619550e+00
176		5.999999999999999e-08
	0.000000000000000e+00
	0.000000000000000e+00
	1.099990976665168e+00
177		6.009999999999999e-08
	1.099999999999792e-01
	1.099999999999792e-01
	1.100556601828926e+00
178		6.029999999999999e-08
	3.299999999999811e-01
	3.299999999999811e-01
	1.099425251595226e+00
179		6.069999999999999e-08
	7.699999999999850e-01
	7.699999999999850e-01
	8.581678393430694e-01
180		6.100000000000000e-08
	1.099999999999995e+00
	1.099999999999995e+00
	3.815931073485549e-01
181		6.104107105027095e-08
	1.100000000000000e+00
	1.100000000000000e+00
	3.087491097180684e-01
182		6.112321315081282e-08
	1.100000000000000e+00
	1.100000000000000e+00
	1.855046168940917e-01
183		6.128749735189657e-08
	1.100000000000000e+00
	1.100000000000000e+00
	5.226255119789215e-02
184		6.140523511366029e-08
	1.100000000000000e+00
	1.100000000000000e+00
	1.987420193139276e-02
185		6.153785889417272e-08
	1.100000000000000e+00
	1.100000000000000e+00
	6.304149290375031e-03
186		6.168516316805714e-08
	1.100000000000000e+00
	1.100000000000000e+00
	1.672481966185637e-03
187		6.191299255178028e-08
	1.100000000000000e+00
	1.100000000000000e+00
	9.502612543761652e-05
188		6.222869123340718e-08
	1.100000000000000e+00
	1.100000000000000e+00
	1.708109178293090e-06
189		6.281668560141951e-08
	1.100000000000000e+00
	1.100000000000000e+00
	1.340920589415631e-05
190		6.381668560141951e-08
	1.100000000000000e+00
	1.100000000000000e+00
	4.389130008187223e-06
191		6.481668560141950e-08
	1.100000000000000e+00
	1.100000000000000e+00
	7.683993486503243e-06
192		6.581668560141950e-08
	1.100000000000000e+00
	1.100000000000000e+00
	4.276120174701424e-06
193		6.600000000000001e-08
	1.099999999999999e+00
	1.100000000000000e+00
	4.986194937216094e-06
194		6.610000000000000e-08
	9.900000000000057e-01
	1.100000000000000e+00
	-4.189534819891283e-05
195		6.630000000000000e-08
	7.700000000000037e-01
	1.100000000000000e+00
	-9.744499167742433e-05
196		6.670000000000001e-08
	3.299999999999998e-01
	1.100000000000000e+00
	-1.212065240599149e-04
197		6.700000000000000e-08
	4.094489504391507e-15
	1.100000000000000e+00
	-1.126029195551321e-04
198		6.708000000000000e-08
	0.000000000000000e+00
	1.100000000000000e+00
	-8.492584299875594e-05
199		6.724000000000000e-08
	0.000000000000000e+00
	1.100000000000000e+00
	-4.293553657919748e-05
200		6.755999999999999e-08
	0.000000000000000e+00
	1.100000000000000e+00
	-7.948311549883733e-06
201		6.819999999999999e-08
	0.000000000000000e+00
	1.100000000000000e+00
	3.238573187491199e-06
202		6.919999999999998e-08
	0.000000000000000e+00
	1.100000000000000e+00
	1.639428515020769e-06
203		7.000000000000000e-08
	0.000000000000000e+00
	1.100000000000000e+00
	2.129325634580710e-06
204		7.010000000000000e-08
	1.099999999999937e-01
	1.100000000000000e+00
	3.224430032410378e-05
205		7.030000000000000e-08
	3.299999999999957e-01
	1.100000000000000e+00
	8.072171292612810e-05
206		7.070000000000000e-08
	7.699999999999997e-01
	1.100000000000000e+00
